time	V(6)	V(10)	V(11)	V(vdd)	I(Rz)	Id(M1)
0.000000000000000e+000	2.647771e+001	4.001827e+000	1.964387e-016	1.799927e+001	2.131807e-002	3.932422e-005
1.074218749999023e-004	2.645474e+001	3.877200e+000	3.361970e-003	1.799904e+001	2.126013e-002	3.983367e-005
3.222656249999290e-004	2.640896e+001	3.631284e+000	9.954239e-003	1.799858e+001	2.114470e-002	4.083892e-005
7.222656249998849e-004	2.632432e+001	3.193892e+000	2.157546e-002	1.799772e+001	2.093130e-002	4.262636e-005
1.122265624999841e-003	2.624042e+001	2.801770e+000	3.189797e-002	1.799688e+001	2.071990e-002	4.422790e-005
1.522265624999797e-003	2.615735e+001	2.483393e+000	4.021621e-002	1.799604e+001	2.051081e-002	4.552694e-005
1.922265624999753e-003	2.607505e+001	2.251143e+000	4.626659e-002	1.799522e+001	2.030387e-002	4.647274e-005
2.183707456348882e-003	2.602167e+001	2.154178e+000	4.880263e-002	1.799468e+001	2.016980e-002	4.686596e-005
2.353268504303507e-003	2.598727e+001	2.123893e+000	4.961288e-002	1.799433e+001	2.008351e-002	4.698742e-005
2.563131600431312e-003	2.594492e+001	2.119815e+000	4.976464e-002	1.799391e+001	1.997737e-002	4.700112e-005
2.752787953389291e-003	2.590681e+001	2.139947e+000	4.929459e-002	1.799353e+001	1.988190e-002	4.691602e-005
2.834851907757674e-003	2.589037e+001	2.156937e+000	4.887981e-002	1.799336e+001	1.984076e-002	4.684531e-005
2.879308108050482e-003	2.588149e+001	2.168984e+000	4.858238e-002	1.799327e+001	1.981853e-002	4.679538e-005
2.899638830017315e-003	2.587744e+001	2.175107e+000	4.843063e-002	1.799323e+001	1.980839e-002	4.677003e-005
2.913516738291211e-003	2.587468e+001	2.179522e+000	4.832099e-002	1.799321e+001	1.980149e-002	4.675176e-005
2.925917071399109e-003	2.587222e+001	2.183606e+000	4.821946e-002	1.799318e+001	1.979536e-002	4.673488e-005
2.939390987686252e-003	2.586958e+001	2.188173e+000	4.810581e-002	1.799315e+001	1.978873e-002	4.671599e-005
2.951786207152196e-003	2.586717e+001	2.192493e+000	4.799823e-002	1.799313e+001	1.978272e-002	4.669814e-005
2.964874572235932e-003	2.586469e+001	2.197181e+000	4.788137e-002	1.799310e+001	1.977650e-002	4.667877e-005
2.978635030236543e-003	2.586217e+001	2.202250e+000	4.775493e-002	1.799308e+001	1.977022e-002	4.665784e-005
2.994300336834899e-003	2.585953e+001	2.208200e+000	4.760639e-002	1.799305e+001	1.976360e-002	4.663328e-005
3.014228325858737e-003	2.585673e+001	2.216074e+000	4.740965e-002	1.799303e+001	1.975662e-002	4.660080e-005
3.048011914235094e-003	2.585373e+001	2.230092e+000	4.705917e-002	1.799300e+001	1.974913e-002	4.654307e-005
3.086143728449731e-003	2.585332e+001	2.246835e+000	4.664028e-002	1.799299e+001	1.974815e-002	4.647422e-005
3.126167868178209e-003	2.585725e+001	2.265597e+000	4.617062e-002	1.799303e+001	1.975806e-002	4.639724e-005
3.177201356873383e-003	2.586944e+001	2.291368e+000	4.552504e-002	1.799315e+001	1.978871e-002	4.629173e-005
3.249840087673928e-003	2.590012e+001	2.331560e+000	4.451703e-002	1.799346e+001	1.986571e-002	4.612762e-005
3.361726630564554e-003	2.597371e+001	2.401242e+000	4.276520e-002	1.799420e+001	2.005033e-002	4.584384e-005
3.539162204824420e-003	2.613740e+001	2.530637e+000	3.949380e-002	1.799584e+001	2.046094e-002	4.531804e-005
3.866655921953788e-003	2.650021e+001	2.809163e+000	3.239501e-002	1.799948e+001	2.137101e-002	4.418718e-005
4.124698041274799e-003	2.678625e+001	3.059199e+000	2.595066e-002	1.800235e+001	2.208860e-002	4.317125e-005
4.401066606147586e-003	2.703568e+001	3.354372e+000	1.824169e-002	1.800486e+001	2.271457e-002	4.196966e-005
4.666257908418681e-003	2.719021e+001	3.652259e+000	1.036693e-002	1.800641e+001	2.310271e-002	4.075434e-005
4.800524216362012e-003	2.722542e+001	3.806633e+000	6.243441e-003	1.800677e+001	2.319139e-002	4.012328e-005
4.876271325734871e-003	2.722719e+001	3.894392e+000	3.881613e-003	1.800678e+001	2.319607e-002	3.976400e-005
4.925239086371658e-003	2.722221e+001	3.951157e+000	2.347389e-003	1.800673e+001	2.318375e-002	3.953143e-005
4.961067841923406e-003	2.721621e+001	3.992648e+000	1.222802e-003	1.800668e+001	2.316884e-002	3.936138e-005
5.000546547480722e-003	2.720827e+001	4.038306e+000	-1.718444e-005	1.800660e+001	2.314908e-002	3.917421e-005
5.022791736561727e-003	2.720344e+001	4.063999e+000	-7.159807e-004	1.800655e+001	2.313705e-002	3.906888e-005
5.036200628485421e-003	2.720043e+001	4.079467e+000	-1.137158e-003	1.800652e+001	2.312954e-002	3.900546e-005
5.049709151000448e-003	2.719735e+001	4.095035e+000	-1.561377e-003	1.800649e+001	2.312186e-002	3.894164e-005
5.063326331679052e-003	2.719422e+001	4.110712e+000	-1.988890e-003	1.800646e+001	2.311407e-002	3.887736e-005
5.078192419596839e-003	2.719079e+001	4.127810e+000	-2.455451e-003	1.800642e+001	2.310553e-002	3.880726e-005
5.091610081484399e-003	2.718769e+001	4.143224e+000	-2.876375e-003	1.800639e+001	2.309779e-002	3.874407e-005
5.105197194470668e-003	2.718454e+001	4.158815e+000	-3.302401e-003	1.800636e+001	2.308995e-002	3.868015e-005
5.118901967057443e-003	2.718136e+001	4.174520e+000	-3.731870e-003	1.800633e+001	2.308203e-002	3.861576e-005
5.133142168650684e-003	2.717806e+001	4.190818e+000	-4.177819e-003	1.800630e+001	2.307380e-002	3.854894e-005
5.148258707033504e-003	2.717455e+001	4.208090e+000	-4.650820e-003	1.800626e+001	2.306506e-002	3.847813e-005
5.167109310420637e-003	2.717018e+001	4.229587e+000	-5.240027e-003	1.800622e+001	2.305417e-002	3.839001e-005
5.190032010464529e-003	2.716486e+001	4.255660e+000	-5.955440e-003	1.800616e+001	2.304092e-002	3.828312e-005
5.220578597255443e-003	2.715779e+001	4.290275e+000	-6.906610e-003	1.800609e+001	2.302328e-002	3.814122e-005
5.263372998980387e-003	2.714788e+001	4.338480e+000	-8.233937e-003	1.800599e+001	2.299859e-002	3.794361e-005
5.331840246712849e-003	2.713206e+001	4.414711e+000	-1.034005e-002	1.800584e+001	2.295915e-002	3.763114e-005
5.461891134640018e-003	2.710209e+001	4.555571e+000	-1.425586e-002	1.800554e+001	2.288447e-002	3.705378e-005
5.721992910494356e-003	2.704249e+001	4.819738e+000	-2.167453e-002	1.800494e+001	2.273585e-002	3.597120e-005
6.121992910494312e-003	2.695150e+001	5.178637e+000	-3.189155e-002	1.800404e+001	2.250886e-002	3.450066e-005
6.521992910494268e-003	2.686135e+001	5.466268e+000	-4.021135e-002	1.800314e+001	2.228374e-002	3.332247e-005
6.921992910494224e-003	2.677201e+001	5.671884e+000	-4.626326e-002	1.800224e+001	2.206045e-002	3.248050e-005
7.183605024427830e-003	2.671404e+001	5.756402e+000	-4.880189e-002	1.800166e+001	2.191539e-002	3.213418e-005
7.353141359549786e-003	2.667671e+001	5.782333e+000	-4.961256e-002	1.800129e+001	2.182191e-002	3.202777e-005
7.562974603261052e-003	2.663075e+001	5.785345e+000	-4.976496e-002	1.800083e+001	2.170674e-002	3.201536e-005
7.752532389390776e-003	2.658946e+001	5.760290e+000	-4.908922e-002	1.800041e+001	2.160319e-002	3.211797e-005
8.060538213260582e-003	2.652283e+001	5.663797e+000	-4.636669e-002	1.799974e+001	2.143593e-002	3.251321e-005
8.460538213260538e-003	2.643700e+001	5.457961e+000	-4.052037e-002	1.799888e+001	2.122023e-002	3.335609e-005
8.860538213260494e-003	2.635198e+001	5.167288e+000	-3.230104e-002	1.799803e+001	2.100631e-002	3.454574e-005
9.260538213260450e-003	2.626780e+001	4.801130e+000	-2.205211e-002	1.799718e+001	2.079430e-002	3.604376e-005
9.660538213260406e-003	2.618446e+001	4.379941e+000	-1.041758e-002	1.799634e+001	2.058423e-002	3.776651e-005
1.006053821326036e-002	2.610196e+001	3.928609e+000	1.871537e-003	1.799550e+001	2.037616e-002	3.961214e-005
1.046053821326032e-002	2.602028e+001	3.475240e+000	1.404306e-002	1.799468e+001	2.017014e-002	4.146551e-005
1.086053821326027e-002	2.593929e+001	3.040530e+000	2.558024e-002	1.799386e+001	1.996593e-002	4.324188e-005
1.102851853617182e-002	2.590551e+001	2.870451e+000	3.005801e-002	1.799352e+001	1.988078e-002	4.393658e-005
1.113324940657856e-002	2.588455e+001	2.771507e+000	3.265030e-002	1.799331e+001	1.982795e-002	4.434058e-005
1.118939963002541e-002	2.587334e+001	2.720695e+000	3.397894e-002	1.799320e+001	1.979970e-002	4.454801e-005
1.121560774394892e-002	2.586811e+001	2.697617e+000	3.458178e-002	1.799315e+001	1.978654e-002	4.464221e-005
1.123089620523476e-002	2.586507e+001	2.684366e+000	3.492775e-002	1.799312e+001	1.977888e-002	4.469629e-005
1.124366722277115e-002	2.586254e+001	2.673405e+000	3.521383e-002	1.799309e+001	1.977250e-002	4.474102e-005
1.125597946526069e-002	2.586011e+001	2.662924e+000	3.548736e-002	1.799306e+001	1.976638e-002	4.478380e-005
1.126894392331845e-002	2.585757e+001	2.651973e+000	3.577308e-002	1.799304e+001	1.975998e-002	4.482849e-005
1.128137350742020e-002	2.585516e+001	2.641557e+000	3.604480e-002	1.799302e+001	1.975392e-002	4.487099e-005
1.129438760868240e-002	2.585270e+001	2.630742e+000	3.632686e-002	1.799299e+001	1.974772e-002	4.491513e-005
1.130820490087037e-002	2.585019e+001	2.619362e+000	3.662361e-002	1.799297e+001	1.974140e-002	4.496157e-005
1.132401178888198e-002	2.584755e+001	2.606481e+000	3.695948e-002	1.799294e+001	1.973474e-002	4.501414e-005
1.134438216551703e-002	2.584477e+001	2.590127e+000	3.738588e-002	1.799291e+001	1.972774e-002	4.508090e-005
1.138050427060655e-002	2.584193e+001	2.561727e+000	3.812648e-002	1.799288e+001	1.972054e-002	4.519689e-005
1.142382983346302e-002	2.584220e+001	2.528549e+000	3.899195e-002	1.799288e+001	1.972112e-002	4.533248e-005
1.146331397132050e-002	2.584711e+001	2.499348e+000	3.975422e-002	1.799293e+001	1.973334e-002	4.545195e-005
1.151809153960692e-002	2.586221e+001	2.460677e+000	4.076486e-002	1.799308e+001	1.977106e-002	4.561041e-005
1.159694632809760e-002	2.589920e+001	2.408753e+000	4.212450e-002	1.799346e+001	1.986361e-002	4.582365e-005
1.171943780267570e-002	2.598689e+001	2.337382e+000	4.400051e-002	1.799433e+001	2.008319e-002	4.611776e-005
1.191628955309643e-002	2.617777e+001	2.245705e+000	4.642980e-002	1.799624e+001	2.056129e-002	4.649765e-005
1.218539104646688e-002	2.648509e+001	2.157469e+000	4.880630e-002	1.799932e+001	2.133122e-002	4.686648e-005
1.235535820392020e-002	2.668497e+001	2.128745e+000	4.961803e-002	1.800133e+001	2.183209e-002	4.698903e-005
1.256571188200217e-002	2.691097e+001	2.126889e+000	4.975924e-002	1.800359e+001	2.239846e-002	4.700204e-005
1.275698814555648e-002	2.706904e+001	2.155492e+000	4.910572e-002	1.800518e+001	2.279471e-002	4.688838e-005
1.301987866278975e-002	2.720744e+001	2.233375e+000	4.720617e-002	1.800657e+001	2.314178e-002	4.657182e-005
1.314092115880983e-002	2.723634e+001	2.283427e+000	4.596031e-002	1.800686e+001	2.321435e-002	4.636692e-005
1.321331662171565e-002	2.723694e+001	2.319799e+000	4.504588e-002	1.800686e+001	2.321597e-002	4.621752e-005
1.326218531698475e-002	2.723169e+001	2.346650e+000	4.436781e-002	1.800681e+001	2.320288e-002	4.610710e-005
1.329680607373285e-002	2.722576e+001	2.366835e+000	4.385666e-002	1.800675e+001	2.318807e-002	4.602404e-005
1.334304568331168e-002	2.721634e+001	2.394910e+000	4.314450e-002	1.800666e+001	2.316455e-002	4.590849e-005
1.336028534243972e-002	2.721257e+001	2.405693e+000	4.287063e-002	1.800662e+001	2.315513e-002	4.586412e-005
1.337532039361800e-002	2.720916e+001	2.415321e+000	4.262589e-002	1.800659e+001	2.314662e-002	4.582449e-005
1.338900168896440e-002	2.720603e+001	2.424216e+000	4.239964e-002	1.800656e+001	2.313879e-002	4.578789e-005
1.340455152817821e-002	2.720244e+001	2.434469e+000	4.213870e-002	1.800652e+001	2.312985e-002	4.574570e-005
1.341861016987545e-002	2.719919e+001	2.443867e+000	4.189941e-002	1.800649e+001	2.312173e-002	4.570703e-005
1.343296082661638e-002	2.719587e+001	2.453597e+000	4.165153e-002	1.800645e+001	2.311342e-002	4.566700e-005
1.345007646275320e-002	2.719190e+001	2.465375e+000	4.135130e-002	1.800641e+001	2.310350e-002	4.561855e-005
1.346978312419300e-002	2.718732e+001	2.479166e+000	4.099952e-002	1.800637e+001	2.309207e-002	4.556182e-005
1.349476270875893e-002	2.718152e+001	2.497005e+000	4.054412e-002	1.800631e+001	2.307759e-002	4.548845e-005
1.352708317860873e-002	2.717402e+001	2.520683e+000	3.993898e-002	1.800624e+001	2.305885e-002	4.539108e-005
1.357369230192540e-002	2.716321e+001	2.556047e+000	3.903376e-002	1.800613e+001	2.303187e-002	4.524568e-005
1.364886354162320e-002	2.714581e+001	2.616260e+000	3.748818e-002	1.800595e+001	2.298844e-002	4.499819e-005
1.379812617474840e-002	2.711139e+001	2.746578e+000	3.412486e-002	1.800561e+001	2.290254e-002	4.446280e-005
1.409665144099881e-002	2.704293e+001	3.036425e+000	2.657517e-002	1.800493e+001	2.273182e-002	4.327278e-005
1.449665144099877e-002	2.695192e+001	3.463479e+000	1.530659e-002	1.800402e+001	2.250497e-002	4.152043e-005
1.489665144099872e-002	2.686176e+001	3.915092e+000	3.193543e-003	1.800312e+001	2.228031e-002	3.966815e-005
1.529665144099868e-002	2.677250e+001	4.365829e+000	-9.120161e-003	1.800223e+001	2.205791e-002	3.782020e-005
1.569665144099863e-002	2.668413e+001	4.787528e+000	-2.086081e-002	1.800135e+001	2.183765e-002	3.609195e-005
1.609665144099859e-002	2.659664e+001	5.155185e+000	-3.129070e-002	1.800048e+001	2.161945e-002	3.458570e-005
1.649665144099854e-002	2.651003e+001	5.448199e+000	-3.975448e-002	1.799961e+001	2.140322e-002	3.338565e-005
1.689665144099850e-002	2.642421e+001	5.658901e+000	-4.594855e-002	1.799875e+001	2.118875e-002	3.252282e-005
1.717407176692509e-002	2.636515e+001	5.751744e+000	-4.873256e-002	1.799817e+001	2.104101e-002	3.214238e-005
1.734130577644710e-002	2.632978e+001	5.779791e+000	-4.960364e-002	1.799781e+001	2.095245e-002	3.202734e-005
1.752168548313970e-002	2.629182e+001	5.786330e+000	-4.984986e-002	1.799743e+001	2.085732e-002	3.200051e-005
1.768531045245281e-002	2.625755e+001	5.770961e+000	-4.944891e-002	1.799709e+001	2.077139e-002	3.206348e-005
1.795148154177029e-002	2.620215e+001	5.701653e+000	-4.750344e-002	1.799653e+001	2.063236e-002	3.234747e-005
1.835148154177024e-002	2.611954e+001	5.519770e+000	-4.233772e-002	1.799570e+001	2.042480e-002	3.309250e-005
1.875148154177020e-002	2.603768e+001	5.252622e+000	-3.476755e-002	1.799487e+001	2.021888e-002	3.418612e-005
1.915148154177015e-002	2.595665e+001	4.905268e+000	-2.501282e-002	1.799406e+001	2.001481e-002	3.560733e-005
1.955148154177011e-002	2.587710e+001	4.503295e+000	-1.383178e-002	1.799326e+001	1.981428e-002	3.725159e-005
1.966199707260685e-002	2.585734e+001	4.383741e+000	-1.053293e-002	1.799306e+001	1.976443e-002	3.774068e-005
1.971216015956734e-002	2.585170e+001	4.327590e+000	-8.991373e-003	1.799300e+001	1.975012e-002	3.797051e-005
1.976074773106884e-002	2.585143e+001	4.272673e+000	-7.486448e-003	1.799300e+001	1.974927e-002	3.819542e-005
1.980524773212311e-002	2.585687e+001	4.222084e+000	-6.101692e-003	1.799305e+001	1.976278e-002	3.840278e-005
1.985713478708484e-002	2.587131e+001	4.162783e+000	-4.480508e-003	1.799320e+001	1.979879e-002	3.864608e-005
1.993677261992066e-002	2.590905e+001	4.071315e+000	-1.984340e-003	1.799357e+001	1.989309e-002	3.902181e-005
2.006198039786789e-002	2.599907e+001	3.927099e+000	1.939934e-003	1.799447e+001	2.011829e-002	3.961511e-005
2.026209834782566e-002	2.619420e+001	3.698472e+000	8.127755e-003	1.799643e+001	2.060667e-002	4.055713e-005
2.061961375247678e-002	2.659152e+001	3.302854e+000	1.875436e-002	1.800040e+001	2.160127e-002	4.218865e-005
2.095784483999563e-002	2.693616e+001	2.953938e+000	2.804341e-002	1.800385e+001	2.246400e-002	4.362689e-005
2.124300996104855e-002	2.714305e+001	2.689867e+000	3.501087e-002	1.800593e+001	2.298174e-002	4.471327e-005
2.143775261766945e-002	2.721706e+001	2.529485e+000	3.921394e-002	1.800667e+001	2.316674e-002	4.537121e-005
2.151460220911416e-002	2.722466e+001	2.472589e+000	4.069841e-002	1.800674e+001	2.318564e-002	4.560395e-005
2.158067888141968e-002	2.722017e+001	2.427259e+000	4.187831e-002	1.800670e+001	2.317424e-002	4.578901e-005
2.161648385351578e-002	2.721488e+001	2.403927e+000	4.248498e-002	1.800664e+001	2.316091e-002	4.588415e-005
2.166054839590781e-002	2.720627e+001	2.376532e+000	4.319685e-002	1.800656e+001	2.313926e-002	4.599577e-005
2.170308003400012e-002	2.719707e+001	2.351088e+000	4.385787e-002	1.800646e+001	2.311614e-002	4.609938e-005
2.172485281592040e-002	2.719215e+001	2.338531e+000	4.418406e-002	1.800641e+001	2.310376e-002	4.615049e-005
2.174650808173473e-002	2.718716e+001	2.326429e+000	4.449846e-002	1.800636e+001	2.309123e-002	4.619974e-005
2.176706070534040e-002	2.718241e+001	2.315258e+000	4.478869e-002	1.800632e+001	2.307929e-002	4.624519e-005
2.179348971590378e-002	2.717629e+001	2.301360e+000	4.514985e-002	1.800626e+001	2.306390e-002	4.630173e-005
2.182779193321527e-002	2.716833e+001	2.284100e+000	4.559853e-002	1.800618e+001	2.304392e-002	4.637191e-005
2.187731203961429e-002	2.715686e+001	2.260837e+000	4.620365e-002	1.800606e+001	2.301510e-002	4.646645e-005
2.195710602609657e-002	2.713841e+001	2.227991e+000	4.705966e-002	1.800587e+001	2.296876e-002	4.659979e-005
2.211669399906113e-002	2.710161e+001	2.176374e+000	4.841131e-002	1.800550e+001	2.287639e-002	4.680882e-005
2.230697719820229e-002	2.705789e+001	2.135707e+000	4.948971e-002	1.800507e+001	2.276671e-002	4.697255e-005
2.246071019711549e-002	2.702272e+001	2.122794e+000	4.985239e-002	1.800471e+001	2.267853e-002	4.702314e-005
2.263539420098781e-002	2.698295e+001	2.133484e+000	4.961788e-002	1.800431e+001	2.257888e-002	4.697681e-005
2.287036231381312e-002	2.692976e+001	2.189876e+000	4.822752e-002	1.800378e+001	2.244576e-002	4.674260e-005
2.325097325891745e-002	2.684425e+001	2.362711e+000	4.387197e-002	1.800293e+001	2.223195e-002	4.602992e-005
2.365097325891741e-002	2.675518e+001	2.635592e+000	3.689649e-002	1.800204e+001	2.200950e-002	4.490764e-005
2.405097325891736e-002	2.666698e+001	2.992772e+000	2.763780e-002	1.800116e+001	2.178949e-002	4.344053e-005
2.445097325891732e-002	2.657966e+001	3.410539e+000	1.664252e-002	1.800029e+001	2.157187e-002	4.172592e-005
2.485097325891728e-002	2.649321e+001	3.860394e+000	4.601538e-003	1.799943e+001	2.135651e-002	3.988072e-005
2.525097325891723e-002	2.640763e+001	4.312744e+000	-7.728580e-003	1.799857e+001	2.114333e-002	3.802616e-005
2.565097325891719e-002	2.632290e+001	4.739146e+000	-1.957308e-002	1.799773e+001	2.093221e-002	3.627867e-005
2.605097325891714e-002	2.623901e+001	5.114157e+000	-3.018774e-002	1.799689e+001	2.072305e-002	3.474235e-005
2.645097325891710e-002	2.615596e+001	5.416630e+000	-3.890558e-002	1.799606e+001	2.051579e-002	3.350363e-005
2.685097325891706e-002	2.607370e+001	5.636440e+000	-4.535277e-002	1.799524e+001	2.031024e-002	3.260362e-005
2.715680370691698e-002	2.601130e+001	5.745180e+000	-4.860377e-002	1.799462e+001	2.015417e-002	3.215820e-005
2.731985541348037e-002	2.597824e+001	5.775850e+000	-4.954927e-002	1.799429e+001	2.007141e-002	3.203245e-005
2.748358877940382e-002	2.594521e+001	5.785050e+000	-4.986793e-002	1.799395e+001	1.998867e-002	3.199474e-005
2.764390007068651e-002	2.591303e+001	5.774517e+000	-4.960701e-002	1.799363e+001	1.990798e-002	3.203793e-005
2.788419201317027e-002	2.586506e+001	5.733704e+000	-4.848326e-002	1.799315e+001	1.978763e-002	3.220512e-005
2.794194006591155e-002	2.585375e+001	5.719181e+000	-4.807543e-002	1.799304e+001	1.975926e-002	3.226460e-005
2.797577655051065e-002	2.584747e+001	5.708712e+000	-4.777926e-002	1.799298e+001	1.974349e-002	3.230749e-005
2.799589769265731e-002	2.584414e+001	5.702055e+000	-4.759051e-002	1.799294e+001	1.973512e-002	3.233478e-005
2.801687223391025e-002	2.584149e+001	5.694737e+000	-4.738264e-002	1.799291e+001	1.972846e-002	3.236479e-005
2.805482630343192e-002	2.583901e+001	5.680788e+000	-4.698554e-002	1.799289e+001	1.972220e-002	3.242206e-005
2.809414980774672e-002	2.583991e+001	5.665475e+000	-4.654854e-002	1.799290e+001	1.972441e-002	3.248503e-005
2.813639512831889e-002	2.584599e+001	5.647878e+000	-4.604493e-002	1.799296e+001	1.973960e-002	3.255753e-005
2.819304874903850e-002	2.586293e+001	5.622361e+000	-4.531263e-002	1.799313e+001	1.978199e-002	3.266288e-005
2.827720922087762e-002	2.590507e+001	5.580506e+000	-4.410838e-002	1.799355e+001	1.988747e-002	3.283606e-005
2.840710963052517e-002	2.600298e+001	5.506732e+000	-4.198283e-002	1.799453e+001	2.013264e-002	3.314191e-005
